Sample in Buffer,Sample in Window,TRIGGER,rx_test_i/system_ila_2/inst/net_slot_0_axis_tdata[127:0],rx_test_i/system_ila_2/inst/net_slot_0_axis_tkeep[15:0],rx_test_i/system_ila_2/inst/net_slot_0_axis_tvalid,rx_test_i/system_ila_2/inst/net_slot_0_axis_tready,rx_test_i/system_ila_2/inst/net_slot_0_axis_tlast,rx_test_i/system_ila_2/inst/net_slot_1_axis_tdata[127:0],rx_test_i/system_ila_2/inst/net_slot_1_axis_tkeep[15:0],rx_test_i/system_ila_2/inst/net_slot_1_axis_tvalid,rx_test_i/system_ila_2/inst/net_slot_1_axis_tready,rx_test_i/system_ila_2/inst/net_slot_1_axis_tlast,rx_test_i/system_ila_2/inst/net_slot_2_axis_tdata[127:0],rx_test_i/system_ila_2/inst/net_slot_2_axis_tvalid,rx_test_i/system_ila_2/inst/net_slot_2_axis_tlast,rx_test_i/system_ila_2/inst/net_slot_3_axis_tdata[127:0],rx_test_i/system_ila_2/inst/net_slot_3_axis_tstrb[15:0],rx_test_i/system_ila_2/inst/net_slot_3_axis_tvalid,rx_test_i/system_ila_2/inst/net_slot_3_axis_tready,rx_test_i/system_ila_2/inst/net_slot_3_axis_tlast,rx_test_i/system_ila_2/inst/net_slot_4_axis_tdata[127:0],rx_test_i/system_ila_2/inst/net_slot_4_axis_tstrb[15:0],rx_test_i/system_ila_2/inst/net_slot_4_axis_tvalid,rx_test_i/system_ila_2/inst/net_slot_4_axis_tready,rx_test_i/system_ila_2/inst/net_slot_4_axis_tlast,Interface_(i1:s0)_(axi_dma_0_M_AXIS_MM2S)[2:0],Interface_(i1:s1)_(axis_data_fifo_0_M_AXIS)[2:0],Interface_(i1:s2)_(tlast_gen_0_m_axis)[2:0],Interface_(i1:s3)_(cfo_correction_0_m_axis)[2:0],Interface_(i1:s4)_(axis_data_fifo_1_M_AXIS)[2:0],T_Channel_(i1:s0)_(axi_dma_0_M_AXIS_MM2S)[2:0],T_Channel_(i1:s1)_(axis_data_fifo_0_M_AXIS)[2:0],T_Channel_(i1:s2)_(tlast_gen_0_m_axis)[2:0],T_Channel_(i1:s3)_(cfo_correction_0_m_axis)[2:0],T_Channel_(i1:s4)_(axis_data_fifo_1_M_AXIS)[2:0]
Radix - UNSIGNED,UNSIGNED,UNSIGNED,HEX,HEX,HEX,HEX,HEX,HEX,HEX,HEX,HEX,HEX,HEX,HEX,HEX,HEX,HEX,HEX,HEX,HEX,HEX,HEX,HEX,HEX,HEX,HEX,HEX,HEX,HEX,HEX,HEX,HEX,HEX,HEX,HEX
0,0,0,00000040280000000000000000000000,0000,0,1,0,00a20202000e20270037232800002328,dfff,1,0,0,00a20202000e20270037235a00002328,0,0,000000000000000000000005dc000000,1111,0,1,0,00000000000000000000000000000000,0000,0,1,0,"Inactive","_","_","_","_","No Streams","_","_","_","_"
1,1,0,00000000000000000000000000000000,0000,0,1,0,00a20202000e20270037232800002328,dfff,1,0,0,00a20202000e20270037232800002328,0,0,00000000000000000000000000000000,1111,0,1,0,00000000000000000000000000000000,0000,0,1,0,"Inactive","_","_","_","_","No Streams","_","_","_","_"
2,2,0,00000000000000000000000000000000,0000,0,1,0,00a20202000e20270037232800002328,dfff,1,0,0,00a20202000e20270037232800002328,0,0,00000000000000000000000000000000,1111,0,1,0,00000000000000000000000000000000,0000,0,1,0,"Inactive","_","_","_","_","No Streams","_","_","_","_"
3,3,0,00000000000000000000000000000000,0000,0,1,0,00a20202000e20270037232800002328,dfff,0,0,1,00a20202000e2027003723280000232a,0,0,00000000000000000000000000000000,1111,0,1,0,00000000000000000000000000000000,0000,0,1,0,"Inactive","_","_","_","_","No Streams","_","_","_","_"
4,4,0,00000000000000000000000000000000,0000,0,1,0,00a20202000e20270037232800002328,dfff,1,0,0,00a20202000e20270037232800002328,0,0,00000000000000000000000000000000,1111,0,1,0,00000000000000000000000000000000,0000,0,1,0,"Inactive","_","_","_","_","No Streams","_","_","_","_"
5,5,0,00000000000000000000000000000000,0000,0,1,0,00a20202000e20270037232800002328,dfff,1,0,0,00a20202000e20270037232800002328,0,0,00000000000000000000000000000000,1111,0,1,0,00000000000000000000000000000000,0000,0,1,0,"Inactive","_","_","_","_","No Streams","_","_","_","_"
6,6,0,00000000000000000000000000000000,0000,0,1,0,00a20202000e20270037232800002328,dfff,1,0,0,00a20202000e20270037232800002328,0,0,00000000000000000000000000000000,1111,0,1,0,00000000000000000000000000000000,0000,0,1,0,"Inactive","_","_","_","_","No Streams","_","_","_","_"
7,7,0,00000000000000000000000000000000,0000,0,1,0,00a20202000e20270037232800002328,dfff,1,0,0,00a20202000e20270037232800002328,0,0,00000000000000000000000000000000,1111,0,1,0,00000000000000000000000000000000,0000,0,1,0,"Inactive","_","_","_","_","No Streams","_","_","_","_"
8,8,0,00000000080000000000000000000000,0000,0,1,0,00a20202000e20270037232800002328,dfff,1,0,0,00a20202000e30270037232800002328,0,0,00000000000000000000000000000000,1111,0,1,0,00000000000000000000000000000000,0000,0,1,0,"Inactive","_","_","_","_","No Streams","_","_","_","_"
9,9,0,00000000280000000000000000000000,0000,0,1,0,00a20202000e20270037232800002328,dfff,1,0,0,00a20202000e20270037232800002328,0,0,00000000000000000000000000000000,1111,0,1,0,00000000000000000000000000000000,0000,0,1,0,"Inactive","_","_","_","_","No Streams","_","_","_","_"
10,10,0,00000000000000000000000000000000,0000,0,1,0,00a20202000e20270037232800002328,dfff,1,0,0,00a20202000e20270037232800002328,0,0,00000000000000000000000000000000,1111,0,1,0,00000000000000000000000000000000,0000,0,1,0,"Inactive","_","_","_","_","No Streams","_","_","_","_"
11,11,0,00000040280000000000000000000000,0000,0,1,0,00a20202000e20270037232800002328,dfff,1,0,0,00a20202000e20270037232800002328,0,0,00000000000000000000000000000000,1111,0,1,0,00000000000000000000000000000000,0000,0,1,0,"Inactive","_","_","_","_","No Streams","_","_","_","_"
12,12,0,00000000000000000000000000000000,0000,0,1,0,00a20202000e20270037232800002328,dfff,1,0,0,00a20202000e20270037232800002328,0,0,00000000000000000000000000000000,1111,0,1,0,00000000000000000000000000000000,0000,0,1,0,"Inactive","_","_","_","_","No Streams","_","_","_","_"
13,13,0,00000000000000000000000000000000,0000,0,1,0,00a20202000e20270037232800002328,dfff,1,0,0,00a20202000e20270037232800002328,0,0,00000000000000000000000000000000,1111,0,1,0,00000000000000000000000000000000,0000,0,1,0,"Inactive","_","_","_","_","No Streams","_","_","_","_"
14,14,0,00000000000000000000000000000000,0000,0,1,0,00a20202000e20270037232800002328,dfff,1,0,0,00a20202000e20270037232800002328,0,0,00000000000000000000000000000000,1111,0,1,0,00000000000000000000000000000000,0000,0,1,0,"Inactive","_","_","_","_","No Streams","_","_","_","_"
15,15,0,00000000000000000000000000000000,0000,0,1,0,00a20202000e20270037232800002328,dfff,1,0,0,00a20202000e20270037232800002328,0,0,00000000000000000000000000000000,1111,0,1,0,00000000000000000000000000000000,0000,0,1,0,"Inactive","_","_","_","_","No Streams","_","_","_","_"
16,16,0,00000000000000000000000000000000,0000,0,1,0,00a20202000e20270037232800002328,dfff,1,0,0,00a20202000e20270037232800002328,0,0,00000000000000000000000000000000,1111,0,1,0,00000000000000000000000000000000,0000,0,1,0,"Inactive","_","_","_","_","No Streams","_","_","_","_"
17,17,0,00000000000000000000000000000000,0000,0,1,0,00a20202000e20270037232800002328,dfff,1,0,0,00a20202000e20270037232800002328,0,0,00000000000000000000000000000000,1111,0,1,0,00000000000000000000000000000000,0000,0,1,0,"Inactive","_","_","_","_","No Streams","_","_","_","_"
18,18,0,00000000000000000000000000000000,0000,0,1,0,00a20202000e20270037232800002328,dfff,1,0,0,00a20202000e20270037232800002328,0,0,00000000000000000000000000000000,1111,0,1,0,00000000000000000000000000000000,0000,0,1,0,"Inactive","_","_","_","_","No Streams","_","_","_","_"
19,19,0,00000000000000000000000000000000,0000,0,1,0,00a20202000e20270037232800002328,dfff,1,0,0,00a20202000e20270037232800002328,0,0,00000000000000000000000000000000,1111,0,1,0,00000000000000000000000000000000,0000,0,1,0,"Inactive","_","_","_","_","No Streams","_","_","_","_"
20,20,0,00000000080000000000000000000000,0000,0,1,0,00a20202000e20270037232800002328,dfff,1,0,0,00a20202000e30270037232800002328,0,0,00000000000000000000000000000000,1111,0,1,0,00000000000000000000000000000000,0000,0,1,0,"Inactive","_","_","_","_","No Streams","_","_","_","_"
21,21,0,00000000000000000000000000000000,0000,0,1,0,00a20202000e20270037232800002328,dfff,1,0,0,00a20202000e248f0037232800002328,0,0,00000000000000000000000000000000,1111,0,1,0,00000000000000000000000000000000,0000,0,1,0,"Inactive","_","_","_","_","No Streams","_","_","_","_"
22,22,0,00000000000000000000000000000000,0000,0,1,0,00a20202000e20270037232800002328,dfff,1,0,0,00a20202000e20270037232800002328,0,0,00000000000000000000000000000000,1111,0,1,0,00000000000000000000000000000000,0000,0,1,0,"Inactive","_","_","_","_","No Streams","_","_","_","_"
23,23,0,00000000080000000000000000000000,0000,0,1,0,00a20202000e20270037232800002328,dfff,1,0,0,00a20202000e30270037232800002328,0,0,00000000000000000000000000000000,1111,0,1,0,00000000000000000000000000000000,0000,0,1,0,"Inactive","_","_","_","_","No Streams","_","_","_","_"
24,24,0,00000000000000000000000000000000,0000,0,1,0,00a20202000e20270037232800002328,dfff,1,0,0,00a20202000e20270037232800002328,0,0,00000000000000000000000000000000,1111,0,1,0,00000000000000000000000000000000,0000,0,1,0,"Inactive","_","_","_","_","No Streams","_","_","_","_"
25,25,0,00000000000000000000000000000000,0000,0,1,0,00a20202000e20270037232800002328,dfff,1,0,0,00a20202000e20270037232800002328,0,0,00000000000000000000000000000000,1111,0,1,0,00000000000000000000000000000000,0000,0,1,0,"Inactive","_","_","_","_","No Streams","_","_","_","_"
26,26,0,00000000000000000000000000000000,0000,0,1,0,00a20202000e20270037232800002328,dfff,1,0,0,00a20202000e70270037232800002328,0,0,00000000000000000000000000000000,1111,0,1,0,00000000000000000000000000000000,0000,0,1,0,"Inactive","_","_","_","_","No Streams","_","_","_","_"
27,27,0,00000000000000000000000000000000,0000,0,1,0,00a20202000e20270037232800002328,dfff,1,0,0,00a20202000e2027003723280000232c,0,0,00000000000000000000000000000000,1111,0,1,0,00000000000000000000000000000000,0000,0,1,0,"Inactive","_","_","_","_","No Streams","_","_","_","_"
28,28,0,00000000000000000000000000000000,0000,0,1,0,00a20202000e20270037232800002328,dfff,1,0,0,00a20202000e20270037232800002328,0,0,00000000000000000000000000000000,1111,0,1,0,00000000000000000000000000000000,0000,0,1,0,"Inactive","_","_","_","_","No Streams","_","_","_","_"
29,29,0,00000000080000000000000000000000,0000,0,1,0,00a20202000e20270037232800002328,dfff,1,0,0,00a20202000e30270037232800002328,0,0,00000000000000000000000000000000,1111,0,1,0,00000000000000000000000000000000,0000,0,1,0,"Inactive","_","_","_","_","No Streams","_","_","_","_"
30,30,0,00000000000000000000000000000000,0000,0,1,0,00a20202000e20270037232800002328,dfff,1,0,0,00a20202000e20270037232800002328,0,0,00000000000000000000000000000000,1111,0,1,0,00000000000000000000000000000000,0000,0,1,0,"Inactive","_","_","_","_","No Streams","_","_","_","_"
31,31,0,00000000000000000000000000000000,0000,0,1,0,00a20202000e20270037232800002328,dfff,1,0,0,00a20202000e20270037232800002328,0,0,00000000000000000000000000000000,1111,0,1,0,00000000000000000000000000000000,0000,0,1,0,"Inactive","_","_","_","_","No Streams","_","_","_","_"
32,32,1,00000000000000000000000000000000,0000,0,1,0,00a20202000e20270037232800002328,ffff,1,1,0,00a22302000e20270037232800002328,1,0,00000000000000000000000000000000,1111,0,1,0,00000000000000000000000000000000,0000,0,1,0,"Inactive","Active","Active","_","_","No Streams","Stream Beat","Stream Beat","_","_"
33,33,0,00000000000000000000000000000000,0000,0,1,0,01822320014b23220137232c00482329,ffff,1,1,0,00a20202000e20270037232800402328,0,0,00000000000000001ee0000000000000,1111,0,1,0,00000000000000000000000000000000,0000,0,1,0,"Inactive","Active","_","_","_","No Streams","Stream Beat","_","_","_"
34,34,0,00000000000000000000000000000000,0000,0,1,0,025f2320014b231701f1231800ba230d,ffff,1,1,0,025f0220014b23160137232c00a8232d,1,0,00000000000000000000000000000000,1111,0,1,0,00000000000000000000000000000000,0000,0,1,0,"Inactive","Active","Active","_","_","No Streams","Stream Beat","Stream Beat","_","_"
35,35,0,00000000000000000000000000000000,0000,0,1,0,033b23220341230702cd230e029d2315,ffff,1,1,0,01822320014b232301f12318001a2309,1,0,00000000000000000000000000000000,1111,0,1,0,00000000000000000000000000000000,0000,0,1,0,"Inactive","Active","Active","_","_","No Streams","Stream Beat","Stream Beat","_","_"
36,36,0,00000000000000000000000000000000,0000,0,1,0,045723ee026423f103a922f703f223bd,ffff,1,1,0,045723ee034423f102cd231a03fd236d,1,0,00000000000000000037210000000028,1111,0,1,0,00000000000000000000000000000000,0000,0,1,0,"Inactive","Active","Active","_","_","No Streams","Stream Beat","Stream Beat","_","_"
37,37,0,00000000000000000000000000000000,0000,0,1,0,05fb23cb03ae23d6048422df005e23b4,ffff,1,1,0,0a1123e20261330503a922f7005223bd,1,0,00a20202000e20270005022800002200,1111,0,1,0,00000000000000000000000000000000,0000,0,1,0,"Inactive","Active","Active","_","_","No Streams","Stream Beat","Stream Beat","_","_"
38,38,0,00000000000000000000000000000000,0000,0,1,0,049722a907e622b6055f22bf052a22dd,ffff,1,1,0,049723e903a622b6048422df053e23b5,1,0,00000000000000000000000000000100,1111,0,1,0,00000000000000000000000000000000,0000,0,1,0,"Inactive","Active","Active","_","_","No Streams","Stream Beat","Stream Beat","_","_"
39,39,0,00000000000000000000000000000000,0000,0,1,0,06a6228706bf22900639229a060722e2,ffff,1,1,0,05fb228b07ee23d6055f22bf000a22db,1,0,00000000000000000000000000000000,1111,0,1,0,00000000000000000000000000000000,0000,0,1,0,"Inactive","Active","Active","_","_","No Streams","Stream Beat","Stream Beat","_","_"
40,40,0,00000000000000000000000000000000,0000,0,1,0,077e225d0790227507122276077922cb,ffff,1,1,0,077e229d06b022740639228e076722e3,1,0,00000000000000000000000000000000,1111,0,1,0,00000000000000000000000000000000,0000,0,1,0,"Inactive","Active","Active","_","_","No Streams","Stream Beat","Stream Beat","_","_"
41,41,0,00000000280000000000000000000000,0000,0,1,0,0456228c0660223407ea225206b72243,ffff,1,1,0,06a62247079f22910712227606b922cb,1,0,00000000000000000000000000000000,1111,0,1,0,00000000000000000000000000000000,0000,0,1,0,"Inactive","Active","Active","_","_","No Streams","Stream Beat","Stream Beat","_","_"
42,42,0,00000000000000000000000000000000,0000,0,1,0,012e20f103fe22ff08c0220d048c225b,ffff,1,1,0,012e02b1066e22fe0dea225204972243,1,0,00000000000000000000000000000000,1111,0,1,0,00000000000000000000000000000000,0000,0,1,0,"Inactive","Active","Active","_","_","No Streams","Stream Beat","Stream Beat","_","_"
43,43,0,00000000000000000000000000000000,0000,0,1,0,0a0020a0082a22d4099621c10df021ed,ffff,1,1,0,045620cc03f0323702c0220d060c225d,1,0,00000000000000000000000000000000,1111,0,1,0,00000000000000000000000000000000,0000,0,1,0,"Inactive","Active","Active","_","_","No Streams","Stream Beat","Stream Beat","_","_"
44,44,0,00000000000000000000000000000000,0000,0,1,0,0bd321f308fe21840a6921950a9121a0,ffff,1,1,0,0bd321b3082e21840b9621b90a9021b8,1,0,00000000000000000000000000000000,1111,0,1,0,00000000000000000000000000000000,0000,0,1,0,"Inactive","Active","Active","_","_","No Streams","Stream Beat","Stream Beat","_","_"
45,45,0,00000000000000000000000000000000,0000,0,1,0,0aa021bc0bd1212e0b3c21520b2521e2,ffff,1,1,0,032a21e008fa22d4086921950b3121a2,1,0,00000000000000000000000000000000,1111,0,1,0,00000000000000000000000000000000,0000,0,1,0,"Inactive","Active","Active","_","_","No Streams","Stream Beat","Stream Beat","_","_"
46,46,0,00000000000000000000000000000000,0000,0,1,0,0c7321f10a9021f40c0c21040b78210a,ffff,1,1,0,0c7321b10bd071f4093c21520b6521e2,1,0,00000000000000000000000000000000,1111,0,1,0,00000000000000000000000000000000,0000,0,1,0,"Inactive","Active","Active","_","_","No Streams","Stream Beat","Stream Beat","_","_"
47,47,0,00000000080000000000000000000000,0000,0,1,0,0d4521240f2e21b50cdb20b909a72162,ffff,1,1,0,0aa021fc0a91312c0e0c21040558210a,1,0,00000000000000000000000000000000,1111,0,1,0,00000000000000000000000000000000,0000,0,1,0,"Inactive","Active","Active","_","_","No Streams","Stream Beat","Stream Beat","_","_"
48,48,0,00000000000000000000000000000000,0000,0,1,0,0e0320eb0c5a20500da7206a0000232a,ffff,1,1,0,0e032feb0f2a20510cdb20c100072162,1,0,00000000000000000000000000000000,1111,0,1,0,00000000000000000000000000000000,0000,0,1,0,"Inactive","Active","Active","_","_","No Streams","Stream Beat","Stream Beat","_","_"
49,49,0,00000000080000000000000000000000,0000,0,1,0,0fd32fdf0da408f70e72200d0ebf20cd,ffff,1,1,0,0d4520e40c5e31b40da7206a0ea0232c,1,0,00000000000000000000000000000000,1111,0,1,0,00000000000000000000000000000000,0000,0,1,0,"Inactive","Active","Active","_","_","No Streams","Stream Beat","Stream Beat","_","_"
50,50,0,00000000000000000000000000000000,0000,0,1,0,0e9d1f300fdc1f980f3a1fb00f081b28,ffff,1,1,0,0e9d0fb00dac1f990e72200d0f1f20c8,1,0,00000000000000000000000000000000,1111,0,1,0,00000000000000000000000000000000,0000,0,1,0,"Inactive","Active","Active","_","_","No Streams","Stream Beat","Stream Beat","_","_"
51,51,0,00000000000000000000000000000000,0000,0,1,0,1c661f9f14a41f3510001f4d0f7f1f64,dfff,1,1,0,0fd31f1f0fd40cf40f3a1fb001281b2c,1,0,00000000000000000000000000000000,1111,0,1,0,00000000000000000000000000000000,0000,0,1,0,"Inactive","Active","Active","_","_","No Streams","Stream Beat","Stream Beat","_","_"
52,52,0,00000000000000000000000000000000,0000,0,1,0,11251fb211741fdd10c31ef514981f40,ffff,1,1,0,11251f3214a41fdd00001f131484f328,1,0,d00000d2000000000000000000000000,1111,0,1,0,0000000000000000000000000000000a,0000,0,1,0,"Inactive","Active","Active","_","_","No Streams","Stream Beat","Stream Beat","_","_"
53,53,0,00000000000000000000000000000000,0000,0,1,0,11e21f1110b51f7011841e7e15d51f67,ffff,1,1,0,16661faa117c5935b0c31ef515d81f46,1,0,00000000000000000000000000000000,1111,0,1,0,00000000000000000000000000000000,0000,0,1,0,"Inactive","Active","Active","_","_","No Streams","Stream Beat","Stream Beat","_","_"
54,54,0,00000000000000000000000000000000,0000,0,1,0,13a01cd012f41eee12421e0f12131f29,ffff,1,1,0,13a00b1010b41eee13841e7e12151f61,1,0,00000000000000000000000000000000,1111,0,1,0,00000000000000000000000000000000,0000,0,1,0,"Inactive","Active","Active","_","_","No Streams","Stream Beat","Stream Beat","_","_"
55,55,0,00000000000000000000000000000000,0000,0,1,0,135b1c4e13bc1e7812fe1d93135f1db5,ffff,1,1,0,11e21cd112f51f7210421e0f00131f2d,1,0,00000000000000000000000000000000,1111,0,1,0,00000000000000000000000000000000,0000,0,1,0,"Inactive","Active","Active","_","_","No Streams","Stream Beat","Stream Beat","_","_"
56,56,0,00000000000000000000000000000000,0000,0,1,0,e4111ddb12751dfd13b61d1f128b1d3a,ffff,1,1,0,14111d5b13b51dfc12fe1dcd129f1db2,1,0,00000000000000000000000000000000,1111,0,1,0,00000000000000000000000000000000,0000,0,1,0,"Inactive","Active","Active","_","_","No Streams","Stream Beat","Stream Beat","_","_"
57,57,0,00000000000000000000000000000000,0000,0,1,0,15c51d5a132c1d7e146b1c9e108f1dbe,ffff,1,1,0,135b1dce127c1e7913b61d1f108b1d3e,1,0,00000000000000000000000000000000,1111,0,1,0,00000000000000000000000000000000,0000,0,1,0,"Inactive","Active","Active","_","_","No Streams","Stream Beat","Stream Beat","_","_"
58,58,0,00000000000000000000000000000000,0000,0,1,0,14751edc17ce1cfb151e1c1c11f01d3f,ffff,1,1,0,1475081c132e18fa146b1c9e11ef1dbf,1,0,00000000000000000000000000000000,1111,0,1,0,00000000000000000000000000000000,0000,0,1,0,"Inactive","Active","Active","_","_","No Streams","Stream Beat","Stream Beat","_","_"
59,59,0,00000000000000000000000000000000,0000,0,1,0,16671e5414d8187315cd1b9614b51ebf,ffff,1,1,0,15c51eda17cc1d7f151e1c1c11501d39,1,0,00000000000000000000000000000000,1111,0,1,0,00000000000000000000000000000000,0000,0,1,0,"Inactive","Active","Active","_","_","No Streams","Stream Beat","Stream Beat","_","_"
60,60,0,00000000000000000000000000000000,0000,0,1,0,1fcd1bdb17e21be716781b0c164b1e3d,ffff,1,1,0,17cd131b14d25be717cd1bd316551ebd,1,0,00000000000000000000000000000000,1111,0,1,0,00000000000000000000000000000000,0000,0,1,0,"Inactive","Active","Active","_","_","No Streams","Stream Beat","Stream Beat","_","_"
